Freq.	V(vo)
1.00000000000000e+002	(-1.00141445192280e-001dB,-8.86301777771978e+000°)
1.00230293249304e+002	(-1.00599175313476e-001dB,-8.88317863912193e+000°)
1.00461116848415e+002	(-1.01058979279078e-001dB,-8.90338422604906e+000°)
1.00692472018692e+002	(-1.01520866318483e-001dB,-8.92363463002353e+000°)
1.00924359984308e+002	(-1.01984845700650e-001dB,-8.94392994270258e+000°)
1.01156781972255e+002	(-1.02450926734274e-001dB,-8.96427025587818e+000°)
1.01389739212350e+002	(-1.02919118767921e-001dB,-8.98465566147682e+000°)
1.01623232937243e+002	(-1.03389431190217e-001dB,-9.00508625155937e+000°)
1.01857264382422e+002	(-1.03861873429966e-001dB,-9.02556211832090e+000°)
1.02091834786220e+002	(-1.04336454956345e-001dB,-9.04608335409039e+000°)
1.02326945389823e+002	(-1.04813185279037e-001dB,-9.06665005133072e+000°)
1.02562597437275e+002	(-1.05292073948394e-001dB,-9.08726230263831e+000°)
1.02798792175484e+002	(-1.05773130555611e-001dB,-9.10792020074298e+000°)
1.03035530854230e+002	(-1.06256364732870e-001dB,-9.12862383850778e+000°)
1.03272814726172e+002	(-1.06741786153522e-001dB,-9.14937330892875e+000°)
1.03510645046852e+002	(-1.07229404532212e-001dB,-9.17016870513473e+000°)
1.03749023074706e+002	(-1.07719229625070e-001dB,-9.19101012038710e+000°)
1.03987950071066e+002	(-1.08211271229875e-001dB,-9.21189764807963e+000°)
1.04227427300169e+002	(-1.08705539186190e-001dB,-9.23283138173823e+000°)
1.04467456029164e+002	(-1.09202043375564e-001dB,-9.25381141502072e+000°)
1.04708037528119e+002	(-1.09700793721650e-001dB,-9.27483784171661e+000°)
1.04949173070025e+002	(-1.10201800190416e-001dB,-9.29591075574689e+000°)
1.05190863930806e+002	(-1.10705072790267e-001dB,-9.31703025116375e+000°)
1.05433111389323e+002	(-1.11210621572244e-001dB,-9.33819642215039e+000°)
1.05675916727383e+002	(-1.11718456630170e-001dB,-9.35940936302074e+000°)
1.05919281229746e+002	(-1.12228588100829e-001dB,-9.38066916821924e+000°)
1.06163206184130e+002	(-1.12741026164108e-001dB,-9.40197593232059e+000°)
1.06407692881216e+002	(-1.13255781043197e-001dB,-9.42332975002949e+000°)
1.06652742614662e+002	(-1.13772863004739e-001dB,-9.44473071618038e+000°)
1.06898356681101e+002	(-1.14292282358987e-001dB,-9.46617892573716e+000°)
1.07144536380154e+002	(-1.14814049460002e-001dB,-9.48767447379297e+000°)
1.07391283014436e+002	(-1.15338174705795e-001dB,-9.50921745556992e+000°)
1.07638597889559e+002	(-1.15864668538517e-001dB,-9.53080796641874e+000°)
1.07886482314144e+002	(-1.16393541444603e-001dB,-9.55244610181863e+000°)
1.08134937599825e+002	(-1.16924803954979e-001dB,-9.57413195737684e+000°)
1.08383965061256e+002	(-1.17458466645187e-001dB,-9.59586562882849e+000°)
1.08633566016120e+002	(-1.17994540135606e-001dB,-9.61764721203628e+000°)
1.08883741785133e+002	(-1.18533035091593e-001dB,-9.63947680299009e+000°)
1.09134493692054e+002	(-1.19073962223657e-001dB,-9.66135449780682e+000°)
1.09385823063689e+002	(-1.19617332287646e-001dB,-9.68328039272998e+000°)
1.09637731229900e+002	(-1.20163156084910e-001dB,-9.70525458412947e+000°)
1.09890219523612e+002	(-1.20711444462466e-001dB,-9.72727716850120e+000°)
1.10143289280821e+002	(-1.21262208313203e-001dB,-9.74934824246683e+000°)
1.10396941840596e+002	(-1.21815458576030e-001dB,-9.77146790277344e+000°)
1.10651178545092e+002	(-1.22371206236063e-001dB,-9.79363624629317e+000°)
1.10906000739557e+002	(-1.22929462324785e-001dB,-9.81585337002293e+000°)
1.11161409772333e+002	(-1.23490237920253e-001dB,-9.83811937108406e+000°)
1.11417406994870e+002	(-1.24053544147243e-001dB,-9.86043434672201e+000°)
1.11673993761729e+002	(-1.24619392177452e-001dB,-9.88279839430600e+000°)
1.11931171430590e+002	(-1.25187793229667e-001dB,-9.90521161132860e+000°)
1.12188941362261e+002	(-1.25758758569929e-001dB,-9.92767409540554e+000°)
1.12447304920684e+002	(-1.26332299511741e-001dB,-9.95018594427517e+000°)
1.12706263472941e+002	(-1.26908427416224e-001dB,-9.97274725579828e+000°)
1.12965818389261e+002	(-1.27487153692309e-001dB,-9.99535812795757e+000°)
1.13225971043033e+002	(-1.28068489796908e-001dB,-1.00180186588574e+001°)
1.13486722810804e+002	(-1.28652447235110e-001dB,-1.00407289467235e+001°)
1.13748075072293e+002	(-1.29239037560352e-001dB,-1.00634890899022e+001°)
1.14010029210398e+002	(-1.29828272374581e-001dB,-1.00862991868607e+001°)
1.14272586611199e+002	(-1.30420163328494e-001dB,-1.01091593361859e+001°)
1.14535748663969e+002	(-1.31014722121667e-001dB,-1.01320696365849e+001°)
1.14799516761182e+002	(-1.31611960502742e-001dB,-1.01550301868837e+001°)
1.15063892298517e+002	(-1.32211890269656e-001dB,-1.01780410860275e+001°)
1.15328876674866e+002	(-1.32814523269766e-001dB,-1.02011024330799e+001°)
1.15594471292347e+002	(-1.33419871400083e-001dB,-1.02242143272227e+001°)
1.15860677556302e+002	(-1.34027946607426e-001dB,-1.02473768677554e+001°)
1.16127496875311e+002	(-1.34638760888624e-001dB,-1.02705901540948e+001°)
1.16394930661201e+002	(-1.35252326290699e-001dB,-1.02938542857744e+001°)
1.16662980329046e+002	(-1.35868654911048e-001dB,-1.03171693624443e+001°)
1.16931647297180e+002	(-1.36487758897644e-001dB,-1.03405354838707e+001°)
1.17200932987205e+002	(-1.37109650449200e-001dB,-1.03639527499352e+001°)
1.17470838823996e+002	(-1.37734341815377e-001dB,-1.03874212606346e+001°)
1.17741366235708e+002	(-1.38361845296973e-001dB,-1.04109411160802e+001°)
1.18012516653787e+002	(-1.38992173246104e-001dB,-1.04345124164978e+001°)
1.18284291512975e+002	(-1.39625338066387e-001dB,-1.04581352622269e+001°)
1.18556692251316e+002	(-1.40261352213165e-001dB,-1.04818097537201e+001°)
1.18829720310169e+002	(-1.40900228193642e-001dB,-1.05055359915430e+001°)
1.19103377134210e+002	(-1.41541978567126e-001dB,-1.05293140763736e+001°)
1.19377664171443e+002	(-1.42186615945195e-001dB,-1.05531441090017e+001°)
1.19652582873207e+002	(-1.42834152991886e-001dB,-1.05770261903285e+001°)
1.19928134694181e+002	(-1.43484602423925e-001dB,-1.06009604213661e+001°)
1.20204321092398e+002	(-1.44137977010846e-001dB,-1.06249469032371e+001°)
1.20481143529245e+002	(-1.44794289575267e-001dB,-1.06489857371739e+001°)
1.20758603469477e+002	(-1.45453552993038e-001dB,-1.06730770245183e+001°)
1.21036702381221e+002	(-1.46115780193438e-001dB,-1.06972208667212e+001°)
1.21315441735985e+002	(-1.46780984159379e-001dB,-1.07214173653415e+001°)
1.21594823008667e+002	(-1.47449177927604e-001dB,-1.07456666220464e+001°)
1.21874847677558e+002	(-1.48120374588887e-001dB,-1.07699687386101e+001°)
1.22155517224359e+002	(-1.48794587288197e-001dB,-1.07943238169137e+001°)
1.22436833134179e+002	(-1.49471829224948e-001dB,-1.08187319589447e+001°)
1.22718796895549e+002	(-1.50152113653150e-001dB,-1.08431932667960e+001°)
1.23001410000426e+002	(-1.50835453881631e-001dB,-1.08677078426659e+001°)
1.23284673944206e+002	(-1.51521863274224e-001dB,-1.08922757888574e+001°)
1.23568590225726e+002	(-1.52211355249984e-001dB,-1.09168972077772e+001°)
1.23853160347275e+002	(-1.52903943283360e-001dB,-1.09415722019357e+001°)
1.24138385814605e+002	(-1.53599640904427e-001dB,-1.09663008739464e+001°)
1.24424268136931e+002	(-1.54298461699055e-001dB,-1.09910833265247e+001°)
1.24710808826946e+002	(-1.55000419309120e-001dB,-1.10159196624881e+001°)
1.24998009400827e+002	(-1.55705527432729e-001dB,-1.10408099847550e+001°)
1.25285871378241e+002	(-1.56413799824384e-001dB,-1.10657543963445e+001°)
1.25574396282357e+002	(-1.57125250295205e-001dB,-1.10907530003758e+001°)
1.25863585639849e+002	(-1.57839892713138e-001dB,-1.11158059000670e+001°)
1.26153440980909e+002	(-1.58557741003147e-001dB,-1.11409131987355e+001°)
1.26443963839253e+002	(-1.59278809147413e-001dB,-1.11660749997963e+001°)
1.26735155752127e+002	(-1.60003111185544e-001dB,-1.11912914067623e+001°)
1.27027018260319e+002	(-1.60730661214791e-001dB,-1.12165625232429e+001°)
1.27319552908165e+002	(-1.61461473390236e-001dB,-1.12418884529440e+001°)
1.27612761243556e+002	(-1.62195561925004e-001dB,-1.12672692996670e+001°)
1.27906644817950e+002	(-1.62932941090471e-001dB,-1.12927051673081e+001°)
1.28201205186377e+002	(-1.63673625216460e-001dB,-1.13181961598579e+001°)
1.28496443907448e+002	(-1.64417628691466e-001dB,-1.13437423814006e+001°)
1.28792362543362e+002	(-1.65164965962838e-001dB,-1.13693439361132e+001°)
1.29088962659918e+002	(-1.65915651537021e-001dB,-1.13950009282650e+001°)
1.29386245826521e+002	(-1.66669699979720e-001dB,-1.14207134622171e+001°)
1.29684213616187e+002	(-1.67427125916144e-001dB,-1.14464816424211e+001°)
1.29982867605558e+002	(-1.68187944031211e-001dB,-1.14723055734191e+001°)
1.30282209374905e+002	(-1.68952169069724e-001dB,-1.14981853598427e+001°)
1.30582240508139e+002	(-1.69719815836636e-001dB,-1.15241211064119e+001°)
1.30882962592819e+002	(-1.70490899197204e-001dB,-1.15501129179353e+001°)
1.31184377220160e+002	(-1.71265434077243e-001dB,-1.15761608993084e+001°)
1.31486485985039e+002	(-1.72043435463311e-001dB,-1.16022651555136e+001°)
1.31789290486009e+002	(-1.72824918402917e-001dB,-1.16284257916190e+001°)
1.32092792325304e+002	(-1.73609898004767e-001dB,-1.16546429127779e+001°)
1.32396993108846e+002	(-1.74398389438938e-001dB,-1.16809166242282e+001°)
1.32701894446257e+002	(-1.75190407937103e-001dB,-1.17072470312910e+001°)
1.33007497950866e+002	(-1.75985968792764e-001dB,-1.17336342393708e+001°)
1.33313805239714e+002	(-1.76785087361419e-001dB,-1.17600783539537e+001°)
1.33620817933572e+002	(-1.77587779060838e-001dB,-1.17865794806076e+001°)
1.33928537656937e+002	(-1.78394059371218e-001dB,-1.18131377249805e+001°)
1.34236966038053e+002	(-1.79203943835437e-001dB,-1.18397531928006e+001°)
1.34546104708909e+002	(-1.80017448059243e-001dB,-1.18664259898747e+001°)
1.34855955305255e+002	(-1.80834587711500e-001dB,-1.18931562220881e+001°)
1.35166519466607e+002	(-1.81655378524366e-001dB,-1.19199439954032e+001°)
1.35477798836258e+002	(-1.82479836293544e-001dB,-1.19467894158590e+001°)
1.35789795061283e+002	(-1.83307976878467e-001dB,-1.19736925895703e+001°)
1.36102509792553e+002	(-1.84139816202545e-001dB,-1.20006536227267e+001°)
1.36415944684738e+002	(-1.84975370253362e-001dB,-1.20276726215919e+001°)
1.36730101396321e+002	(-1.85814655082899e-001dB,-1.20547496925028e+001°)
1.37044981589603e+002	(-1.86657686807754e-001dB,-1.20818849418685e+001°)
1.37360586930714e+002	(-1.87504481609362e-001dB,-1.21090784761698e+001°)
1.37676919089620e+002	(-1.88355055734201e-001dB,-1.21363304019580e+001°)
1.37993979740133e+002	(-1.89209425494033e-001dB,-1.21636408258541e+001°)
1.38311770559920e+002	(-1.90067607266104e-001dB,-1.21910098545482e+001°)
1.38630293230512e+002	(-1.90929617493371e-001dB,-1.22184375947982e+001°)
1.38949549437312e+002	(-1.91795472684728e-001dB,-1.22459241534289e+001°)
1.39269540869605e+002	(-1.92665189415213e-001dB,-1.22734696373316e+001°)
1.39590269220564e+002	(-1.93538784326243e-001dB,-1.23010741534627e+001°)
1.39911736187264e+002	(-1.94416274125820e-001dB,-1.23287378088430e+001°)
1.40233943470687e+002	(-1.95297675588779e-001dB,-1.23564607105566e+001°)
1.40556892775733e+002	(-1.96183005556977e-001dB,-1.23842429657502e+001°)
1.40880585811227e+002	(-1.97072280939531e-001dB,-1.24120846816320e+001°)
1.41205024289930e+002	(-1.97965518713045e-001dB,-1.24399859654707e+001°)
1.41530209928547e+002	(-1.98862735921829e-001dB,-1.24679469245948e+001°)
1.41856144447738e+002	(-1.99763949678117e-001dB,-1.24959676663913e+001°)
1.42182829572124e+002	(-2.00669177162303e-001dB,-1.25240482983050e+001°)
1.42510267030298e+002	(-2.01578435623148e-001dB,-1.25521889278374e+001°)
1.42838458554834e+002	(-2.02491742378005e-001dB,-1.25803896625455e+001°)
1.43167405882295e+002	(-2.03409114813077e-001dB,-1.26086506100414e+001°)
1.43497110753246e+002	(-2.04330570383595e-001dB,-1.26369718779907e+001°)
1.43827574912257e+002	(-2.05256126614066e-001dB,-1.26653535741116e+001°)
1.44158800107917e+002	(-2.06185801098508e-001dB,-1.26937958061741e+001°)
1.44490788092843e+002	(-2.07119611500648e-001dB,-1.27222986819991e+001°)
1.44823540623687e+002	(-2.08057575554177e-001dB,-1.27508623094565e+001°)
1.45157059461146e+002	(-2.08999711062959e-001dB,-1.27794867964655e+001°)
1.45491346369973e+002	(-2.09946035901263e-001dB,-1.28081722509922e+001°)
1.45826403118985e+002	(-2.10896568013981e-001dB,-1.28369187810495e+001°)
1.46162231481071e+002	(-2.11851325416874e-001dB,-1.28657264946956e+001°)
1.46498833233203e+002	(-2.12810326196784e-001dB,-1.28945955000330e+001°)
1.46836210156448e+002	(-2.13773588511863e-001dB,-1.29235259052074e+001°)
1.47174364035972e+002	(-2.14741130591808e-001dB,-1.29525178184066e+001°)
1.47513296661053e+002	(-2.15712970738073e-001dB,-1.29815713478595e+001°)
1.47853009825089e+002	(-2.16689127324127e-001dB,-1.30106866018349e+001°)
1.48193505325609e+002	(-2.17669618795660e-001dB,-1.30398636886402e+001°)
1.48534784964281e+002	(-2.18654463670799e-001dB,-1.30691027166208e+001°)
1.48876850546922e+002	(-2.19643680540376e-001dB,-1.30984037941583e+001°)
1.49219703883507e+002	(-2.20637288068131e-001dB,-1.31277670296698e+001°)
1.49563346788182e+002	(-2.21635304990935e-001dB,-1.31571925316066e+001°)
1.49907781079269e+002	(-2.22637750119043e-001dB,-1.31866804084531e+001°)
1.50253008579275e+002	(-2.23644642336315e-001dB,-1.32162307687257e+001°)
1.50599031114909e+002	(-2.24656000600429e-001dB,-1.32458437209711e+001°)
1.50945850517084e+002	(-2.25671843943142e-001dB,-1.32755193737659e+001°)
1.51293468620929e+002	(-2.26692191470493e-001dB,-1.33052578357149e+001°)
1.51641887265801e+002	(-2.27717062363050e-001dB,-1.33350592154500e+001°)
1.51991108295291e+002	(-2.28746475876137e-001dB,-1.33649236216290e+001°)
1.52341133557238e+002	(-2.29780451340065e-001dB,-1.33948511629342e+001°)
1.52691964903733e+002	(-2.30819008160356e-001dB,-1.34248419480716e+001°)
1.53043604191136e+002	(-2.31862165817997e-001dB,-1.34548960857693e+001°)
1.53396053280079e+002	(-2.32909943869644e-001dB,-1.34850136847762e+001°)
1.53749314035482e+002	(-2.33962361947867e-001dB,-1.35151948538610e+001°)
1.54103388326557e+002	(-2.35019439761383e-001dB,-1.35454397018109e+001°)
1.54458278026821e+002	(-2.36081197095294e-001dB,-1.35757483374300e+001°)
1.54813985014108e+002	(-2.37147653811296e-001dB,-1.36061208695383e+001°)
1.55170511170574e+002	(-2.38218829847947e-001dB,-1.36365574069705e+001°)
1.55527858382710e+002	(-2.39294745220867e-001dB,-1.36670580585744e+001°)
1.55886028541352e+002	(-2.40375420022982e-001dB,-1.36976229332098e+001°)
1.56245023541691e+002	(-2.41460874424776e-001dB,-1.37282521397468e+001°)
1.56604845283281e+002	(-2.42551128674487e-001dB,-1.37589457870652e+001°)
1.56965495670051e+002	(-2.43646203098372e-001dB,-1.37897039840525e+001°)
1.57326976610316e+002	(-2.44746118100928e-001dB,-1.38205268396026e+001°)
1.57689290016783e+002	(-2.45850894165120e-001dB,-1.38514144626149e+001°)
1.58052437806567e+002	(-2.46960551852618e-001dB,-1.38823669619924e+001°)
1.58416421901196e+002	(-2.48075111804055e-001dB,-1.39133844466407e+001°)
1.58781244226623e+002	(-2.49194594739212e-001dB,-1.39444670254663e+001°)
1.59146906713238e+002	(-2.50319021457293e-001dB,-1.39756148073754e+001°)
1.59513411295874e+002	(-2.51448412837136e-001dB,-1.40068279012725e+001°)
1.59880759913823e+002	(-2.52582789837468e-001dB,-1.40381064160589e+001°)
1.60248954510840e+002	(-2.53722173497111e-001dB,-1.40694504606311e+001°)
1.60617997035159e+002	(-2.54866584935245e-001dB,-1.41008601438800e+001°)
1.60987889439498e+002	(-2.56016045351617e-001dB,-1.41323355746885e+001°)
1.61358633681074e+002	(-2.57170576026787e-001dB,-1.41638768619307e+001°)
1.61730231721611e+002	(-2.58330198322375e-001dB,-1.41954841144705e+001°)
1.62102685527349e+002	(-2.59494933681265e-001dB,-1.42271574411596e+001°)
1.62475997069059e+002	(-2.60664803627868e-001dB,-1.42588969508364e+001°)
1.62850168322048e+002	(-2.61839829768337e-001dB,-1.42907027523245e+001°)
1.63225201266174e+002	(-2.63020033790810e-001dB,-1.43225749544309e+001°)
1.63601097885853e+002	(-2.64205437465640e-001dB,-1.43545136659448e+001°)
1.63977860170071e+002	(-2.65396062645643e-001dB,-1.43865189956360e+001°)
1.64355490112395e+002	(-2.66591931266308e-001dB,-1.44185910522533e+001°)
1.64733989710985e+002	(-2.67793065346044e-001dB,-1.44507299445227e+001°)
1.65113360968598e+002	(-2.68999486986432e-001dB,-1.44829357811464e+001°)
1.65493605892607e+002	(-2.70211218372415e-001dB,-1.45152086708008e+001°)
1.65874726495008e+002	(-2.71428281772574e-001dB,-1.45475487221352e+001°)
1.66256724792427e+002	(-2.72650699539354e-001dB,-1.45799560437698e+001°)
1.66639602806138e+002	(-2.73878494109273e-001dB,-1.46124307442945e+001°)
1.67023362562067e+002	(-2.75111688003183e-001dB,-1.46449729322673e+001°)
1.67408006090808e+002	(-2.76350303826495e-001dB,-1.46775827162123e+001°)
1.67793535427629e+002	(-2.77594364269404e-001dB,-1.47102602046184e+001°)
1.68179952612487e+002	(-2.78843892107134e-001dB,-1.47430055059376e+001°)
1.68567259690037e+002	(-2.80098910200181e-001dB,-1.47758187285831e+001°)
1.68955458709639e+002	(-2.81359441494511e-001dB,-1.48086999809282e+001°)
1.69344551725378e+002	(-2.82625509021831e-001dB,-1.48416493713040e+001°)
1.69734540796066e+002	(-2.83897135899809e-001dB,-1.48746670079980e+001°)
1.70125427985256e+002	(-2.85174345332293e-001dB,-1.49077529992526e+001°)
1.70517215361255e+002	(-2.86457160609571e-001dB,-1.49409074532631e+001°)
1.70909904997133e+002	(-2.87745605108567e-001dB,-1.49741304781758e+001°)
1.71303498970733e+002	(-2.89039702293125e-001dB,-1.50074221820870e+001°)
1.71697999364684e+002	(-2.90339475714192e-001dB,-1.50407826730406e+001°)
1.72093408266411e+002	(-2.91644949010074e-001dB,-1.50742120590266e+001°)
1.72489727768146e+002	(-2.92956145906671e-001dB,-1.51077104479792e+001°)
1.72886959966938e+002	(-2.94273090217695e-001dB,-1.51412779477754e+001°)
1.73285106964669e+002	(-2.95595805844913e-001dB,-1.51749146662326e+001°)
1.73684170868058e+002	(-2.96924316778378e-001dB,-1.52086207111077e+001°)
1.74084153788676e+002	(-2.98258647096655e-001dB,-1.52423961900942e+001°)
1.74485057842959e+002	(-2.99598820967043e-001dB,-1.52762412108214e+001°)
1.74886885152216e+002	(-3.00944862645844e-001dB,-1.53101558808520e+001°)
1.75289637842639e+002	(-3.02296796478546e-001dB,-1.53441403076803e+001°)
1.75693318045320e+002	(-3.03654646900077e-001dB,-1.53781945987307e+001°)
1.76097927896256e+002	(-3.05018438435042e-001dB,-1.54123188613554e+001°)
1.76503469536365e+002	(-3.06388195697943e-001dB,-1.54465132028329e+001°)
1.76909945111495e+002	(-3.07763943393389e-001dB,-1.54807777303658e+001°)
1.77317356772434e+002	(-3.09145706316374e-001dB,-1.55151125510794e+001°)
1.77725706674925e+002	(-3.10533509352462e-001dB,-1.55495177720191e+001°)
1.78134996979675e+002	(-3.11927377478034e-001dB,-1.55839935001492e+001°)
1.78545229852367e+002	(-3.13327335760519e-001dB,-1.56185398423503e+001°)
1.78956407463671e+002	(-3.14733409358604e-001dB,-1.56531569054182e+001°)
1.79368531989257e+002	(-3.16145623522489e-001dB,-1.56878447960612e+001°)
1.79781605609803e+002	(-3.17564003594098e-001dB,-1.57226036208982e+001°)
1.80195630511013e+002	(-3.18988575007300e-001dB,-1.57574334864575e+001°)
1.80610608883620e+002	(-3.20419363288149e-001dB,-1.57923344991738e+001°)
1.81026542923406e+002	(-3.21856394055112e-001dB,-1.58273067653870e+001°)
1.81443434831207e+002	(-3.23299693019279e-001dB,-1.58623503913397e+001°)
1.81861286812928e+002	(-3.24749285984600e-001dB,-1.58974654831756e+001°)
1.82280101079556e+002	(-3.26205198848111e-001dB,-1.59326521469371e+001°)
1.82699879847166e+002	(-3.27667457600157e-001dB,-1.59679104885634e+001°)
1.83120625336941e+002	(-3.29136088324610e-001dB,-1.60032406138887e+001°)
1.83542339775175e+002	(-3.30611117199106e-001dB,-1.60386426286397e+001°)
1.83965025393291e+002	(-3.32092570495248e-001dB,-1.60741166384339e+001°)
1.84388684427852e+002	(-3.33580474578851e-001dB,-1.61096627487773e+001°)
1.84813319120570e+002	(-3.35074855910160e-001dB,-1.61452810650625e+001°)
1.85238931718319e+002	(-3.36575741044057e-001dB,-1.61809716925665e+001°)
1.85665524473149e+002	(-3.38083156630297e-001dB,-1.62167347364485e+001°)
1.86093099642295e+002	(-3.39597129413731e-001dB,-1.62525703017479e+001°)
1.86521659488192e+002	(-3.41117686234509e-001dB,-1.62884784933820e+001°)
1.86951206278483e+002	(-3.42644854028316e-001dB,-1.63244594161443e+001°)
